Circuit: * C:\Users\otavi\Git\circuitos_eletronicos_ii\PROJETO\circuito_1.asc

Instance "m2": Length shorter than recommended for a level 1 MOSFET.
.OP point found by inspection.
Semiconductor Device Operating Points:
                        --- MOSFET Transistors ---
Name:          m2
Model:        nmos
Id:          0.00e+00
Vgs:         0.00e+00
Vds:         0.00e+00
Vbs:         0.00e+00
Vth:         0.00e+00
Vdsat:       0.00e+00
Gm:          0.00e+00
Gds:         0.00e+00
Gmb:         0.00e+00
Cbd:         0.00e+00
Cbs:         0.00e+00
Cgsov:       0.00e+00
Cgdov:       0.00e+00
Cgbov:       0.00e+00
Cgs:         0.00e+00
Cgd:         0.00e+00
Cgb:        -0.00e+00



Date: Sat Aug 24 14:59:55 2019
Total elapsed time: 18.159 seconds.

tnom = 27
temp = 27
method = trap
totiter = 10
traniter = 0
tranpoints = 0
accept = 0
rejected = 0
matrix size = 7
fillins = 0
solver = Normal
Matrix Compiler1: 294 bytes object code size
Matrix Compiler2: 521 bytes object code size
